T67FC 000:092.791   SEGGER J-Link V7.60b Log File
T67FC 000:092.894   DLL Compiled: Dec 22 2021 12:50:18
T67FC 000:092.903   Logging started @ 2022-03-26 13:09
T67FC 000:092.914 - 92.918ms
T67FC 000:092.926 JLINK_SetWarnOutHandler(...)
T67FC 000:092.935 - 0.012ms
T67FC 000:092.944 JLINK_OpenEx(...)
T67FC 000:108.100   Firmware: J-Link V9 compiled May  7 2021 16:26:12
T67FC 000:108.472   Firmware: J-Link V9 compiled May  7 2021 16:26:12
T67FC 000:108.652   Decompressing FW timestamp took 151 us
T67FC 000:118.175   Hardware: V9.20
T67FC 000:118.249   S/N: 56879885
T67FC 000:118.260   OEM: SEGGER
T67FC 000:118.269   Feature(s): GDB, RDI, FlashBP, FlashDL, JFlash, RDDI
T67FC 000:128.304   TELNET listener socket opened on port 19021
T67FC 000:128.403   WEBSRV WEBSRV_Init(): Starting webserver thread(s)
T67FC 000:131.562   WEBSRV Failed to put socket into listener state (port 19080)
T67FC 000:131.659   WEBSRV Webserver running on local port 19081
T67FC 000:138.569 - 45.643ms returns "O.K."
T67FC 000:138.607 JLINK_GetEmuCaps()
T67FC 000:138.616 - 0.011ms returns 0xB9FF7BBF
T67FC 000:138.632 JLINK_TIF_GetAvailable(...)
T67FC 000:140.157 - 1.536ms
T67FC 000:140.177 JLINK_SetErrorOutHandler(...)
T67FC 000:140.184 - 0.010ms
T67FC 000:140.202 JLINK_ExecCommand("ProjectFile = "d:\Users\Desktop\lcde\MDK-ARM\JLinkSettings.ini"", ...). 
T67FC 000:150.920   Ref file found at: D:\Keil_v5\ARM\Segger\JLinkDevices.ref
T67FC 000:151.050   XML referenced by ref file: C:\Program Files\SEGGER\JLink\JLinkDevices.xml
T67FC 000:151.691   C:\Program Files\SEGGER\JLink\JLinkDevices.xml evaluated successfully.
T67FC 000:183.434 - 43.246ms returns 0x00
T67FC 000:183.748 JLINK_ExecCommand("Device = STM32L431KCUx", ...). 
T67FC 000:184.131   Device "STM32L431KC" selected.
T67FC 000:184.490 - 0.737ms returns 0x00
T67FC 000:184.504 JLINK_ExecCommand("DisableConnectionTimeout", ...). 
T67FC 000:184.514 - 0.005ms returns 0x01
T67FC 000:184.526 JLINK_GetHardwareVersion()
T67FC 000:184.534 - 0.011ms returns 92000
T67FC 000:184.543 JLINK_GetDLLVersion()
T67FC 000:184.549 - 0.010ms returns 76002
T67FC 000:184.558 JLINK_GetOEMString(...)
T67FC 000:184.566 JLINK_GetFirmwareString(...)
T67FC 000:184.576 - 0.012ms
T67FC 000:184.811 JLINK_GetDLLVersion()
T67FC 000:184.818 - 0.010ms returns 76002
T67FC 000:184.826 JLINK_GetCompileDateTime()
T67FC 000:184.833 - 0.010ms
T67FC 000:184.913 JLINK_GetFirmwareString(...)
T67FC 000:184.922 - 0.012ms
T67FC 000:185.000 JLINK_GetHardwareVersion()
T67FC 000:185.007 - 0.010ms returns 92000
T67FC 000:185.085 JLINK_GetSN()
T67FC 000:185.092 - 0.010ms returns 56879885
T67FC 000:185.887 JLINK_GetOEMString(...)
T67FC 000:186.517 JLINK_TIF_Select(JLINKARM_TIF_SWD)
T67FC 000:188.563 - 2.057ms returns 0x00
T67FC 000:188.582 JLINK_HasError()
T67FC 000:188.596 JLINK_SetSpeed(1000)
T67FC 000:188.744 - 0.155ms
T67FC 000:188.758 JLINK_GetId()
T67FC 000:196.000   Found SW-DP with ID 0x2BA01477
T67FC 000:707.832   
  ***** Error: 
T67FC 000:707.859   STM32 (connect): Error while checking CPU state.
T67FC 000:708.188   STM32 (connect): Can not attach to CPU. Trying connect under reset.
T67FC 000:864.206   
  ***** Error: 
T67FC 000:864.283   STM32: Connecting to CPU via connect under reset failed.
T67FC 000:970.090   Found SW-DP with ID 0x2BA01477
T67FC 000:987.345   Found SW-DP with ID 0x2BA01477
T67FC 000:991.071   DPIDR: 0x2BA01477
T67FC 000:991.255   CoreSight SoC-400 or earlier
T67FC 000:991.430   Scanning AP map to find all available APs
T67FC 000:992.403   AP[1]: Stopped AP scan as end of AP map has been reached
T67FC 000:992.782   AP[0]: AHB-AP (IDR: 0x24770011)
T67FC 000:992.937   Iterating through AP map to find AHB-AP to use
T67FC 000:994.362   AP[0]: Core found
T67FC 000:994.512   AP[0]: AHB-AP ROM base: 0xE00FF000
T67FC 000:995.387   CPUID register: 0x410FC241. Implementer code: 0x41 (ARM)
T67FC 000:995.551   Found Cortex-M4 r0p1, Little endian.
T67FC 001:096.819   -- Max. mem block: 0x0000D538
T67FC 001:099.935   CPU_ReadMem(4 bytes @ 0xE000EDF0)
T67FC 001:101.001   CPU_ReadMem(4 bytes @ 0xE0002000)
T67FC 001:102.662   FPUnit: 6 code (BP) slots and 2 literal slots
T67FC 001:102.706   CPU_ReadMem(4 bytes @ 0xE000EDFC)
T67FC 001:103.520   CPU_ReadMem(4 bytes @ 0xE0001000)
T67FC 001:104.300   CPU_WriteMem(4 bytes @ 0xE0001000)
T67FC 001:105.075   CPU_ReadMem(4 bytes @ 0xE000ED88)
T67FC 001:105.929   CPU_WriteMem(4 bytes @ 0xE000ED88)
T67FC 001:106.874   CPU_ReadMem(4 bytes @ 0xE000ED88)
T67FC 001:107.728   CPU_WriteMem(4 bytes @ 0xE000ED88)
T67FC 001:109.197   CoreSight components:
T67FC 001:109.711   ROMTbl[0] @ E00FF000
T67FC 001:109.752   CPU_ReadMem(64 bytes @ 0xE00FF000)
T67FC 001:111.441   CPU_ReadMem(32 bytes @ 0xE000EFE0)
T67FC 001:114.068   [0][0]: E000E000 CID B105E00D PID 000BB00C SCS-M7
T67FC 001:114.120   CPU_ReadMem(32 bytes @ 0xE0001FE0)
T67FC 001:116.022   [0][1]: E0001000 CID B105E00D PID 003BB002 DWT
T67FC 001:116.069   CPU_ReadMem(32 bytes @ 0xE0002FE0)
T67FC 001:117.832   [0][2]: E0002000 CID B105E00D PID 002BB003 FPB
T67FC 001:117.879   CPU_ReadMem(32 bytes @ 0xE0000FE0)
T67FC 001:119.581   [0][3]: E0000000 CID B105E00D PID 003BB001 ITM
T67FC 001:119.626   CPU_ReadMem(32 bytes @ 0xE0040FE0)
T67FC 001:121.297   [0][4]: E0040000 CID B105900D PID 000BB9A1 TPIU
T67FC 001:121.363   CPU_ReadMem(32 bytes @ 0xE0041FE0)
T67FC 001:123.105   [0][5]: E0041000 CID B105900D PID 000BB925 ETM
T67FC 001:123.654 - 934.935ms returns 0x2BA01477
T67FC 001:124.449 JLINK_GetDLLVersion()
T67FC 001:124.476 - 0.038ms returns 76002
T67FC 001:124.512 JLINK_CORE_GetFound()
T67FC 001:124.535 - 0.034ms returns 0xE0000FF
T67FC 001:124.564 JLINK_GetDebugInfo(0x100 = JLINKARM_ROM_TABLE_ADDR_INDEX)
T67FC 001:124.589   Value=0xE00FF000
T67FC 001:124.621 - 0.069ms returns 0
T67FC 001:125.124 JLINK_GetDebugInfo(0x100 = JLINKARM_ROM_TABLE_ADDR_INDEX)
T67FC 001:125.166   Value=0xE00FF000
T67FC 001:125.198 - 0.086ms returns 0
T67FC 001:125.224 JLINK_GetDebugInfo(0x101 = JLINKARM_DEBUG_INFO_ETM_ADDR_INDEX)
T67FC 001:125.246   Value=0xE0041000
T67FC 001:125.279 - 0.066ms returns 0
T67FC 001:125.319 JLINK_ReadMemEx(0xE0041FD0, 0x20 Bytes, Flags = 0x02000004)
T67FC 001:125.383   CPU_ReadMem(32 bytes @ 0xE0041FD0)
T67FC 001:127.548   Data:  04 00 00 00 00 00 00 00 00 00 00 00 00 00 00 00 ...
T67FC 001:127.617 - 2.309ms returns 32 (0x20)
T67FC 001:127.651 JLINK_GetDebugInfo(0x102 = JLINKARM_DEBUG_INFO_MTB_ADDR_INDEX)
T67FC 001:127.677   Value=0x00000000
T67FC 001:127.712 - 0.082ms returns 0
T67FC 001:127.749 JLINK_GetDebugInfo(0x103 = JLINKARM_DEBUG_INFO_TPIU_ADDR_INDEX)
T67FC 001:127.773   Value=0xE0040000
T67FC 001:127.804 - 0.065ms returns 0
T67FC 001:127.828 JLINK_GetDebugInfo(0x104 = JLINKARM_DEBUG_INFO_ITM_ADDR_INDEX)
T67FC 001:127.852   Value=0xE0000000
T67FC 001:127.883 - 0.065ms returns 0
T67FC 001:127.908 JLINK_GetDebugInfo(0x105 = JLINKARM_DEBUG_INFO_DWT_ADDR_INDEX)
T67FC 001:127.932   Value=0xE0001000
T67FC 001:127.962 - 0.066ms returns 0
T67FC 001:127.989 JLINK_GetDebugInfo(0x106 = JLINKARM_DEBUG_INFO_FPB_ADDR_INDEX)
T67FC 001:128.011   Value=0xE0002000
T67FC 001:128.044 - 0.075ms returns 0
T67FC 001:128.078 JLINK_GetDebugInfo(0x107 = JLINKARM_DEBUG_INFO_NVIC_ADDR_INDEX)
T67FC 001:128.101   Value=0xE000E000
T67FC 001:128.133 - 0.066ms returns 0
T67FC 001:128.159 JLINK_GetDebugInfo(0x10C = JLINKARM_DEBUG_INFO_DBG_ADDR_INDEX)
T67FC 001:128.182   Value=0xE000EDF0
T67FC 001:128.215 - 0.066ms returns 0
T67FC 001:128.240 JLINK_GetDebugInfo(0x01 = Unknown)
T67FC 001:128.264   Value=0x00000001
T67FC 001:128.296 - 0.066ms returns 0
T67FC 001:128.741 JLINK_ReadMemU32(0xE000ED00, 0x1 Items)
T67FC 001:128.926   CPU_ReadMem(4 bytes @ 0xE000ED00)
T67FC 001:130.041   Data:  41 C2 0F 41
T67FC 001:130.120   Debug reg: CPUID
T67FC 001:130.152 - 1.421ms returns 1 (0x1)
T67FC 001:130.184 JLINK_GetDebugInfo(0x10F = JLINKARM_DEBUG_INFO_HAS_CORTEX_M_SECURITY_EXT_INDEX)
T67FC 001:130.211   Value=0x00000000
T67FC 001:130.279 - 0.106ms returns 0
T67FC 001:130.304 JLINK_HasError()
T67FC 001:130.334 JLINK_SetResetType(JLINKARM_CM3_RESET_TYPE_NORMAL)
T67FC 001:130.362 - 0.040ms returns JLINKARM_CM3_RESET_TYPE_NORMAL
T67FC 001:130.388 JLINK_Reset()
T67FC 001:130.428   CPU is running
T67FC 001:130.458   CPU_WriteMem(4 bytes @ 0xE000EDF0)
T67FC 001:131.528   CPU is running
T67FC 001:131.587   CPU_WriteMem(4 bytes @ 0xE000EDFC)
T67FC 001:133.563   Reset: Halt core after reset via DEMCR.VC_CORERESET.
T67FC 001:134.993   Reset: Reset device via AIRCR.SYSRESETREQ.
T67FC 001:135.028   CPU is running
T67FC 001:135.058   CPU_WriteMem(4 bytes @ 0xE000ED0C)
T67FC 001:188.201   CPU_ReadMem(4 bytes @ 0xE000EDF0)
T67FC 001:188.879   CPU_ReadMem(4 bytes @ 0xE000EDF0)
T67FC 001:189.527   CPU is running
T67FC 001:189.542   CPU_WriteMem(4 bytes @ 0xE000EDF0)
T67FC 001:190.204   CPU is running
T67FC 001:190.243   CPU_WriteMem(4 bytes @ 0xE000EDFC)
T67FC 001:196.173   CPU_ReadMem(4 bytes @ 0xE000EDF0)
T67FC 001:203.296   CPU_WriteMem(4 bytes @ 0xE0002000)
T67FC 001:203.939   CPU_ReadMem(4 bytes @ 0xE000EDFC)
T67FC 001:204.563   CPU_ReadMem(4 bytes @ 0xE0001000)
T67FC 001:205.190 - 74.809ms
T67FC 001:205.216 JLINK_Halt()
T67FC 001:205.231 - 0.017ms returns 0x00
T67FC 001:205.241 JLINK_ReadMemU32(0xE000EDF0, 0x1 Items)
T67FC 001:205.258   CPU_ReadMem(4 bytes @ 0xE000EDF0)
T67FC 001:207.367   Data:  03 00 03 00
T67FC 001:207.392   Debug reg: DHCSR
T67FC 001:207.402 - 2.164ms returns 1 (0x1)
T67FC 001:207.423 JLINK_WriteU32_64(0xE000EDF0, 0xA05F0003)
T67FC 001:207.434   Debug reg: DHCSR
T67FC 001:207.648   CPU_WriteMem(4 bytes @ 0xE000EDF0)
T67FC 001:208.835 - 1.422ms returns 0 (0x00000000)
T67FC 001:208.855 JLINK_WriteU32_64(0xE000EDFC, 0x01000000)
T67FC 001:208.865   Debug reg: DEMCR
T67FC 001:208.895   CPU_WriteMem(4 bytes @ 0xE000EDFC)
T67FC 001:210.443 - 1.599ms returns 0 (0x00000000)
T67FC 001:211.794 JLINK_GetHWStatus(...)
T67FC 001:212.877 - 1.094ms returns 0
T67FC 001:213.326 JLINK_GetNumBPUnits(Type = 0xFFFFFF00)
T67FC 001:213.335 - 0.011ms returns 0x06
T67FC 001:213.343 JLINK_GetNumBPUnits(Type = 0xF0)
T67FC 001:213.350 - 0.010ms returns 0x2000
T67FC 001:213.358 JLINK_GetNumWPUnits()
T67FC 001:213.365 - 0.010ms returns 4
T67FC 001:213.780 JLINK_GetSpeed()
T67FC 001:213.787 - 0.010ms returns 1000
T67FC 001:214.074 JLINK_ReadMemU32(0xE000E004, 0x1 Items)
T67FC 001:214.088   CPU_ReadMem(4 bytes @ 0xE000E004)
T67FC 001:215.361   Data:  02 00 00 00
T67FC 001:215.379 - 1.308ms returns 1 (0x1)
T67FC 001:215.389 JLINK_ReadMemU32(0xE000E004, 0x1 Items)
T67FC 001:215.401   CPU_ReadMem(4 bytes @ 0xE000E004)
T67FC 001:216.830   Data:  02 00 00 00
T67FC 001:216.848 - 1.462ms returns 1 (0x1)
T67FC 001:216.861 JLINK_WriteMemEx(0xE0001000, 0x0000001C Bytes, Flags = 0x02000004)
T67FC 001:216.869   Data:  01 00 00 00 00 00 00 00 00 00 00 00 00 00 00 00 ...
T67FC 001:216.885   CPU_WriteMem(28 bytes @ 0xE0001000)
T67FC 001:219.870 - 3.020ms returns 0x1C
T67FC 001:219.890 JLINK_Halt()
T67FC 001:219.898 - 0.011ms returns 0x00
T67FC 001:219.907 JLINK_IsHalted()
T67FC 001:219.915 - 0.010ms returns TRUE
T67FC 001:221.224 JLINK_WriteMem(0x20000000, 0x1BC Bytes, ...)
T67FC 001:221.238   Data:  00 BE 0A E0 0D 78 2D 06 68 40 08 24 40 00 00 D3 ...
T67FC 001:221.579   CPU_WriteMem(444 bytes @ 0x20000000)
T67FC 001:228.941 - 7.742ms returns 0x1BC
T67FC 001:229.008 JLINK_HasError()
T67FC 001:229.025 JLINK_WriteReg(R0, 0x08000000)
T67FC 001:229.037 - 0.015ms returns 0
T67FC 001:229.045 JLINK_WriteReg(R1, 0x007A1200)
T67FC 001:229.052 - 0.011ms returns 0
T67FC 001:229.060 JLINK_WriteReg(R2, 0x00000001)
T67FC 001:229.068 - 0.010ms returns 0
T67FC 001:229.075 JLINK_WriteReg(R3, 0x00000000)
T67FC 001:229.082 - 0.010ms returns 0
T67FC 001:229.090 JLINK_WriteReg(R4, 0x00000000)
T67FC 001:229.098 - 0.012ms returns 0
T67FC 001:229.107 JLINK_WriteReg(R5, 0x00000000)
T67FC 001:229.114 - 0.010ms returns 0
T67FC 001:229.122 JLINK_WriteReg(R6, 0x00000000)
T67FC 001:229.129 - 0.010ms returns 0
T67FC 001:229.137 JLINK_WriteReg(R7, 0x00000000)
T67FC 001:229.144 - 0.010ms returns 0
T67FC 001:229.152 JLINK_WriteReg(R8, 0x00000000)
T67FC 001:229.166 - 0.020ms returns 0
T67FC 001:229.179 JLINK_WriteReg(R9, 0x200001B8)
T67FC 001:229.186 - 0.010ms returns 0
T67FC 001:229.194 JLINK_WriteReg(R10, 0x00000000)
T67FC 001:229.201 - 0.011ms returns 0
T67FC 001:229.209 JLINK_WriteReg(R11, 0x00000000)
T67FC 001:229.216 - 0.010ms returns 0
T67FC 001:229.224 JLINK_WriteReg(R12, 0x00000000)
T67FC 001:229.230 - 0.009ms returns 0
T67FC 001:229.238 JLINK_WriteReg(R13 (SP), 0x20001000)
T67FC 001:229.246 - 0.011ms returns 0
T67FC 001:229.254 JLINK_WriteReg(R14, 0x20000001)
T67FC 001:229.261 - 0.010ms returns 0
T67FC 001:229.268 JLINK_WriteReg(R15 (PC), 0x20000086)
T67FC 001:229.276 - 0.010ms returns 0
T67FC 001:229.284 JLINK_WriteReg(XPSR, 0x01000000)
T67FC 001:229.291 - 0.010ms returns 0
T67FC 001:229.300 JLINK_WriteReg(MSP, 0x20001000)
T67FC 001:229.307 - 0.010ms returns 0
T67FC 001:229.315 JLINK_WriteReg(PSP, 0x20001000)
T67FC 001:229.322 - 0.011ms returns 0
T67FC 001:229.330 JLINK_WriteReg(CFBP, 0x00000000)
T67FC 001:229.338 - 0.010ms returns 0
T67FC 001:229.347 JLINK_SetBPEx(Addr = 0x20000000, Type = 0xFFFFFFF2)
T67FC 001:229.360   CPU_ReadMem(2 bytes @ 0x20000000)
T67FC 001:230.750 - 1.416ms returns 0x00000001
T67FC 001:230.774 JLINK_Go()
T67FC 001:230.785   CPU_WriteMem(2 bytes @ 0x20000000)
T67FC 001:232.270   CPU_ReadMem(4 bytes @ 0xE0001000)
T67FC 001:232.983   CPU_WriteMem(4 bytes @ 0xE0002008)
T67FC 001:233.004   CPU_WriteMem(4 bytes @ 0xE000200C)
T67FC 001:233.015   CPU_WriteMem(4 bytes @ 0xE0002010)
T67FC 001:233.025   CPU_WriteMem(4 bytes @ 0xE0002014)
T67FC 001:233.035   CPU_WriteMem(4 bytes @ 0xE0002018)
T67FC 001:233.045   CPU_WriteMem(4 bytes @ 0xE000201C)
T67FC 001:236.387   CPU_WriteMem(4 bytes @ 0xE0001004)
T67FC 001:244.516 - 13.761ms
T67FC 001:244.547 JLINK_IsHalted()
T67FC 001:253.527   CPU_ReadMem(2 bytes @ 0x20000000)
T67FC 001:255.347 - 10.816ms returns TRUE
T67FC 001:255.381 JLINK_ReadReg(R15 (PC))
T67FC 001:255.394 - 0.018ms returns 0x20000000
T67FC 001:255.405 JLINK_ClrBPEx(BPHandle = 0x00000001)
T67FC 001:255.429 - 0.031ms returns 0x00
T67FC 001:255.442 JLINK_ReadReg(R0)
T67FC 001:255.480 - 0.058ms returns 0x00000000
T67FC 001:255.531 JLINK_HasError()
T67FC 001:255.542 JLINK_WriteReg(R0, 0x08000000)
T67FC 001:255.552 - 0.013ms returns 0
T67FC 001:255.561 JLINK_WriteReg(R1, 0x007A1200)
T67FC 001:255.568 - 0.010ms returns 0
T67FC 001:255.576 JLINK_WriteReg(R2, 0x00000001)
T67FC 001:255.584 - 0.011ms returns 0
T67FC 001:255.591 JLINK_WriteReg(R3, 0x00000000)
T67FC 001:255.599 - 0.011ms returns 0
T67FC 001:255.607 JLINK_WriteReg(R4, 0x00000000)
T67FC 001:255.615 - 0.011ms returns 0
T67FC 001:255.623 JLINK_WriteReg(R5, 0x00000000)
T67FC 001:255.630 - 0.010ms returns 0
T67FC 001:255.638 JLINK_WriteReg(R6, 0x00000000)
T67FC 001:255.645 - 0.011ms returns 0
T67FC 001:255.653 JLINK_WriteReg(R7, 0x00000000)
T67FC 001:255.661 - 0.011ms returns 0
T67FC 001:255.668 JLINK_WriteReg(R8, 0x00000000)
T67FC 001:255.676 - 0.011ms returns 0
T67FC 001:255.684 JLINK_WriteReg(R9, 0x200001B8)
T67FC 001:255.691 - 0.010ms returns 0
T67FC 001:255.699 JLINK_WriteReg(R10, 0x00000000)
T67FC 001:255.706 - 0.011ms returns 0
T67FC 001:255.714 JLINK_WriteReg(R11, 0x00000000)
T67FC 001:255.721 - 0.010ms returns 0
T67FC 001:255.729 JLINK_WriteReg(R12, 0x00000000)
T67FC 001:255.736 - 0.010ms returns 0
T67FC 001:255.744 JLINK_WriteReg(R13 (SP), 0x20001000)
T67FC 001:255.751 - 0.010ms returns 0
T67FC 001:255.760 JLINK_WriteReg(R14, 0x20000001)
T67FC 001:255.773 - 0.016ms returns 0
T67FC 001:255.781 JLINK_WriteReg(R15 (PC), 0x200000C0)
T67FC 001:255.789 - 0.011ms returns 0
T67FC 001:255.797 JLINK_WriteReg(XPSR, 0x01000000)
T67FC 001:255.804 - 0.011ms returns 0
T67FC 001:255.812 JLINK_WriteReg(MSP, 0x20001000)
T67FC 001:255.819 - 0.011ms returns 0
T67FC 001:255.827 JLINK_WriteReg(PSP, 0x20001000)
T67FC 001:255.835 - 0.010ms returns 0
T67FC 001:255.842 JLINK_WriteReg(CFBP, 0x00000000)
T67FC 001:255.850 - 0.011ms returns 0
T67FC 001:255.858 JLINK_SetBPEx(Addr = 0x20000000, Type = 0xFFFFFFF2)
T67FC 001:255.867 - 0.048ms returns 0x00000002
T67FC 001:255.914 JLINK_Go()
T67FC 001:255.931   CPU_ReadMem(4 bytes @ 0xE0001000)
T67FC 001:263.874 - 7.979ms
T67FC 001:263.906 JLINK_IsHalted()
T67FC 001:265.081 - 1.190ms returns FALSE
T67FC 001:265.103 JLINK_HasError()
T67FC 001:270.452 JLINK_IsHalted()
T67FC 001:272.634 - 2.212ms returns FALSE
T67FC 001:272.675 JLINK_HasError()
T67FC 001:276.221 JLINK_IsHalted()
T67FC 001:277.377 - 1.172ms returns FALSE
T67FC 001:277.401 JLINK_HasError()
T67FC 001:299.218 JLINK_IsHalted()
T67FC 001:307.677   CPU_ReadMem(2 bytes @ 0x20000000)
T67FC 001:309.266 - 10.148ms returns TRUE
T67FC 001:309.382 JLINK_ReadReg(R15 (PC))
T67FC 001:309.396 - 0.017ms returns 0x20000000
T67FC 001:309.405 JLINK_ClrBPEx(BPHandle = 0x00000002)
T67FC 001:309.412 - 0.010ms returns 0x00
T67FC 001:309.421 JLINK_ReadReg(R0)
T67FC 001:309.430 - 0.012ms returns 0x00000000
T67FC 001:360.362 JLINK_HasError()
T67FC 001:360.389 JLINK_WriteReg(R0, 0x00000001)
T67FC 001:360.401 - 0.015ms returns 0
T67FC 001:360.409 JLINK_WriteReg(R1, 0x007A1200)
T67FC 001:360.417 - 0.011ms returns 0
T67FC 001:360.425 JLINK_WriteReg(R2, 0x00000001)
T67FC 001:360.433 - 0.011ms returns 0
T67FC 001:360.440 JLINK_WriteReg(R3, 0x00000000)
T67FC 001:360.447 - 0.010ms returns 0
T67FC 001:360.455 JLINK_WriteReg(R4, 0x00000000)
T67FC 001:360.462 - 0.010ms returns 0
T67FC 001:360.470 JLINK_WriteReg(R5, 0x00000000)
T67FC 001:360.477 - 0.011ms returns 0
T67FC 001:360.485 JLINK_WriteReg(R6, 0x00000000)
T67FC 001:360.493 - 0.010ms returns 0
T67FC 001:360.500 JLINK_WriteReg(R7, 0x00000000)
T67FC 001:360.507 - 0.010ms returns 0
T67FC 001:360.515 JLINK_WriteReg(R8, 0x00000000)
T67FC 001:360.522 - 0.010ms returns 0
T67FC 001:360.530 JLINK_WriteReg(R9, 0x200001B8)
T67FC 001:360.537 - 0.011ms returns 0
T67FC 001:360.545 JLINK_WriteReg(R10, 0x00000000)
T67FC 001:360.553 - 0.011ms returns 0
T67FC 001:360.560 JLINK_WriteReg(R11, 0x00000000)
T67FC 001:360.567 - 0.010ms returns 0
T67FC 001:360.575 JLINK_WriteReg(R12, 0x00000000)
T67FC 001:360.582 - 0.010ms returns 0
T67FC 001:360.589 JLINK_WriteReg(R13 (SP), 0x20001000)
T67FC 001:360.598 - 0.012ms returns 0
T67FC 001:360.606 JLINK_WriteReg(R14, 0x20000001)
T67FC 001:360.613 - 0.011ms returns 0
T67FC 001:360.621 JLINK_WriteReg(R15 (PC), 0x200000B0)
T67FC 001:360.628 - 0.011ms returns 0
T67FC 001:360.636 JLINK_WriteReg(XPSR, 0x01000000)
T67FC 001:360.643 - 0.010ms returns 0
T67FC 001:360.651 JLINK_WriteReg(MSP, 0x20001000)
T67FC 001:360.658 - 0.011ms returns 0
T67FC 001:360.666 JLINK_WriteReg(PSP, 0x20001000)
T67FC 001:360.673 - 0.011ms returns 0
T67FC 001:360.681 JLINK_WriteReg(CFBP, 0x00000000)
T67FC 001:360.688 - 0.010ms returns 0
T67FC 001:360.696 JLINK_SetBPEx(Addr = 0x20000000, Type = 0xFFFFFFF2)
T67FC 001:360.704 - 0.011ms returns 0x00000003
T67FC 001:360.712 JLINK_Go()
T67FC 001:360.731   CPU_ReadMem(4 bytes @ 0xE0001000)
T67FC 001:367.991 - 7.300ms
T67FC 001:368.023 JLINK_IsHalted()
T67FC 001:375.897   CPU_ReadMem(2 bytes @ 0x20000000)
T67FC 001:377.472 - 9.463ms returns TRUE
T67FC 001:377.497 JLINK_ReadReg(R15 (PC))
T67FC 001:377.508 - 0.014ms returns 0x20000000
T67FC 001:377.516 JLINK_ClrBPEx(BPHandle = 0x00000003)
T67FC 001:377.525 - 0.012ms returns 0x00
T67FC 001:377.534 JLINK_ReadReg(R0)
T67FC 001:377.543 - 0.012ms returns 0x00000000
T67FC 001:379.011 JLINK_WriteMem(0x20000000, 0x1BC Bytes, ...)
T67FC 001:379.030   Data:  00 BE 0A E0 0D 78 2D 06 68 40 08 24 40 00 00 D3 ...
T67FC 001:379.053   CPU_WriteMem(444 bytes @ 0x20000000)
T67FC 001:385.347 - 6.356ms returns 0x1BC
T67FC 001:385.406 JLINK_HasError()
T67FC 001:385.419 JLINK_WriteReg(R0, 0x08000000)
T67FC 001:385.431 - 0.016ms returns 0
T67FC 001:385.440 JLINK_WriteReg(R1, 0x007A1200)
T67FC 001:385.449 - 0.012ms returns 0
T67FC 001:385.458 JLINK_WriteReg(R2, 0x00000002)
T67FC 001:385.466 - 0.011ms returns 0
T67FC 001:385.475 JLINK_WriteReg(R3, 0x00000000)
T67FC 001:385.483 - 0.012ms returns 0
T67FC 001:385.491 JLINK_WriteReg(R4, 0x00000000)
T67FC 001:385.499 - 0.012ms returns 0
T67FC 001:385.513 JLINK_WriteReg(R5, 0x00000000)
T67FC 001:385.525 - 0.015ms returns 0
T67FC 001:385.533 JLINK_WriteReg(R6, 0x00000000)
T67FC 001:385.541 - 0.012ms returns 0
T67FC 001:385.550 JLINK_WriteReg(R7, 0x00000000)
T67FC 001:385.559 - 0.012ms returns 0
T67FC 001:385.567 JLINK_WriteReg(R8, 0x00000000)
T67FC 001:385.574 - 0.011ms returns 0
T67FC 001:385.583 JLINK_WriteReg(R9, 0x200001B8)
T67FC 001:385.590 - 0.010ms returns 0
T67FC 001:385.598 JLINK_WriteReg(R10, 0x00000000)
T67FC 001:385.606 - 0.012ms returns 0
T67FC 001:385.615 JLINK_WriteReg(R11, 0x00000000)
T67FC 001:385.622 - 0.010ms returns 0
T67FC 001:385.631 JLINK_WriteReg(R12, 0x00000000)
T67FC 001:385.639 - 0.011ms returns 0
T67FC 001:385.646 JLINK_WriteReg(R13 (SP), 0x20001000)
T67FC 001:385.655 - 0.012ms returns 0
T67FC 001:385.664 JLINK_WriteReg(R14, 0x20000001)
T67FC 001:385.671 - 0.010ms returns 0
T67FC 001:385.679 JLINK_WriteReg(R15 (PC), 0x20000086)
T67FC 001:385.687 - 0.013ms returns 0
T67FC 001:385.696 JLINK_WriteReg(XPSR, 0x01000000)
T67FC 001:385.705 - 0.013ms returns 0
T67FC 001:385.715 JLINK_WriteReg(MSP, 0x20001000)
T67FC 001:385.723 - 0.011ms returns 0
T67FC 001:385.732 JLINK_WriteReg(PSP, 0x20001000)
T67FC 001:385.740 - 0.012ms returns 0
T67FC 001:385.749 JLINK_WriteReg(CFBP, 0x00000000)
T67FC 001:385.757 - 0.011ms returns 0
T67FC 001:385.765 JLINK_SetBPEx(Addr = 0x20000000, Type = 0xFFFFFFF2)
T67FC 001:385.781   CPU_ReadMem(2 bytes @ 0x20000000)
T67FC 001:388.240 - 2.494ms returns 0x00000004
T67FC 001:388.267 JLINK_Go()
T67FC 001:388.281   CPU_WriteMem(2 bytes @ 0x20000000)
T67FC 001:388.857   CPU_ReadMem(4 bytes @ 0xE0001000)
T67FC 001:398.240 - 9.999ms
T67FC 001:398.279 JLINK_IsHalted()
T67FC 001:409.899   CPU_ReadMem(2 bytes @ 0x20000000)
T67FC 001:411.240 - 12.986ms returns TRUE
T67FC 001:411.275 JLINK_ReadReg(R15 (PC))
T67FC 001:411.287 - 0.033ms returns 0x20000000
T67FC 001:411.315 JLINK_ClrBPEx(BPHandle = 0x00000004)
T67FC 001:411.325 - 0.013ms returns 0x00
T67FC 001:411.334 JLINK_ReadReg(R0)
T67FC 001:411.342 - 0.011ms returns 0x00000000
T67FC 001:411.374 JLINK_WriteMem(0x200001BC, 0x244 Bytes, ...)
T67FC 001:411.383   Data:  40 2F 00 20 45 02 00 08 CF 3D 00 08 49 37 00 08 ...
T67FC 001:411.403   CPU_WriteMem(580 bytes @ 0x200001BC)
T67FC 001:420.991 - 9.646ms returns 0x244
T67FC 001:421.033 JLINK_WriteMem(0x20000400, 0x1BC Bytes, ...)
T67FC 001:421.043   Data:  09 48 80 47 09 48 00 47 FE E7 FE E7 FE E7 FE E7 ...
T67FC 001:421.069   CPU_WriteMem(444 bytes @ 0x20000400)
T67FC 001:427.996 - 6.982ms returns 0x1BC
T67FC 001:428.028 JLINK_HasError()
T67FC 001:428.079 JLINK_WriteReg(R0, 0x08000000)
T67FC 001:428.102 - 0.027ms returns 0
T67FC 001:428.111 JLINK_WriteReg(R1, 0x00000400)
T67FC 001:428.119 - 0.011ms returns 0
T67FC 001:428.127 JLINK_WriteReg(R2, 0x200001BC)
T67FC 001:428.135 - 0.011ms returns 0
T67FC 001:428.143 JLINK_WriteReg(R3, 0x00000000)
T67FC 001:428.150 - 0.010ms returns 0
T67FC 001:428.159 JLINK_WriteReg(R4, 0x00000000)
T67FC 001:428.166 - 0.011ms returns 0
T67FC 001:428.174 JLINK_WriteReg(R5, 0x00000000)
T67FC 001:428.182 - 0.011ms returns 0
T67FC 001:428.190 JLINK_WriteReg(R6, 0x00000000)
T67FC 001:428.197 - 0.010ms returns 0
T67FC 001:428.205 JLINK_WriteReg(R7, 0x00000000)
T67FC 001:428.213 - 0.011ms returns 0
T67FC 001:428.220 JLINK_WriteReg(R8, 0x00000000)
T67FC 001:428.228 - 0.010ms returns 0
T67FC 001:428.235 JLINK_WriteReg(R9, 0x200001B8)
T67FC 001:428.242 - 0.010ms returns 0
T67FC 001:428.250 JLINK_WriteReg(R10, 0x00000000)
T67FC 001:428.258 - 0.011ms returns 0
T67FC 001:428.266 JLINK_WriteReg(R11, 0x00000000)
T67FC 001:428.273 - 0.010ms returns 0
T67FC 001:428.282 JLINK_WriteReg(R12, 0x00000000)
T67FC 001:428.289 - 0.010ms returns 0
T67FC 001:428.296 JLINK_WriteReg(R13 (SP), 0x20001000)
T67FC 001:428.304 - 0.011ms returns 0
T67FC 001:428.313 JLINK_WriteReg(R14, 0x20000001)
T67FC 001:428.320 - 0.011ms returns 0
T67FC 001:428.328 JLINK_WriteReg(R15 (PC), 0x20000136)
T67FC 001:428.337 - 0.013ms returns 0
T67FC 001:428.347 JLINK_WriteReg(XPSR, 0x01000000)
T67FC 001:428.363 - 0.020ms returns 0
T67FC 001:428.372 JLINK_WriteReg(MSP, 0x20001000)
T67FC 001:428.381 - 0.012ms returns 0
T67FC 001:428.389 JLINK_WriteReg(PSP, 0x20001000)
T67FC 001:428.397 - 0.011ms returns 0
T67FC 001:428.406 JLINK_WriteReg(CFBP, 0x00000000)
T67FC 001:428.414 - 0.012ms returns 0
T67FC 001:428.424 JLINK_SetBPEx(Addr = 0x20000000, Type = 0xFFFFFFF2)
T67FC 001:428.434 - 0.014ms returns 0x00000005
T67FC 001:428.443 JLINK_Go()
T67FC 001:428.460   CPU_ReadMem(4 bytes @ 0xE0001000)
T67FC 001:437.071 - 8.646ms
T67FC 001:437.098 JLINK_IsHalted()
T67FC 001:437.746 - 0.663ms returns FALSE
T67FC 001:437.771 JLINK_HasError()
T67FC 001:439.799 JLINK_IsHalted()
T67FC 001:441.355 - 1.579ms returns FALSE
T67FC 001:441.387 JLINK_HasError()
T67FC 001:443.338 JLINK_IsHalted()
T67FC 001:444.238 - 0.912ms returns FALSE
T67FC 001:444.260 JLINK_HasError()
T67FC 001:446.264 JLINK_IsHalted()
T67FC 001:448.977 - 2.733ms returns FALSE
T67FC 001:449.009 JLINK_HasError()
T67FC 001:450.322 JLINK_IsHalted()
T67FC 001:458.836   CPU_ReadMem(2 bytes @ 0x20000000)
T67FC 001:460.287 - 9.979ms returns TRUE
T67FC 001:460.311 JLINK_ReadReg(R15 (PC))
T67FC 001:460.323 - 0.016ms returns 0x20000000
T67FC 001:460.332 JLINK_ClrBPEx(BPHandle = 0x00000005)
T67FC 001:460.340 - 0.011ms returns 0x00
T67FC 001:460.348 JLINK_ReadReg(R0)
T67FC 001:460.357 - 0.011ms returns 0x00000000
T67FC 001:460.399 JLINK_WriteMem(0x200001BC, 0x244 Bytes, ...)
T67FC 001:460.410   Data:  E1 68 88 47 01 2F 06 46 18 D1 E0 69 00 28 20 DA ...
T67FC 001:460.429   CPU_WriteMem(580 bytes @ 0x200001BC)
T67FC 001:469.395 - 9.012ms returns 0x244
T67FC 001:469.423 JLINK_WriteMem(0x20000400, 0x1BC Bytes, ...)
T67FC 001:469.433   Data:  B8 F1 01 0F 4F F0 00 00 01 D0 30 21 03 E0 F2 43 ...
T67FC 001:469.455   CPU_WriteMem(444 bytes @ 0x20000400)
T67FC 001:476.912 - 7.506ms returns 0x1BC
T67FC 001:476.941 JLINK_HasError()
T67FC 001:476.952 JLINK_WriteReg(R0, 0x08000400)
T67FC 001:476.965 - 0.018ms returns 0
T67FC 001:476.975 JLINK_WriteReg(R1, 0x00000400)
T67FC 001:476.983 - 0.012ms returns 0
T67FC 001:476.992 JLINK_WriteReg(R2, 0x200001BC)
T67FC 001:477.000 - 0.012ms returns 0
T67FC 001:477.009 JLINK_WriteReg(R3, 0x00000000)
T67FC 001:477.017 - 0.012ms returns 0
T67FC 001:477.026 JLINK_WriteReg(R4, 0x00000000)
T67FC 001:477.034 - 0.013ms returns 0
T67FC 001:477.043 JLINK_WriteReg(R5, 0x00000000)
T67FC 001:477.052 - 0.012ms returns 0
T67FC 001:477.060 JLINK_WriteReg(R6, 0x00000000)
T67FC 001:477.068 - 0.012ms returns 0
T67FC 001:477.078 JLINK_WriteReg(R7, 0x00000000)
T67FC 001:477.085 - 0.011ms returns 0
T67FC 001:477.093 JLINK_WriteReg(R8, 0x00000000)
T67FC 001:477.100 - 0.011ms returns 0
T67FC 001:477.108 JLINK_WriteReg(R9, 0x200001B8)
T67FC 001:477.117 - 0.012ms returns 0
T67FC 001:477.124 JLINK_WriteReg(R10, 0x00000000)
T67FC 001:477.132 - 0.012ms returns 0
T67FC 001:477.172 JLINK_WriteReg(R11, 0x00000000)
T67FC 001:477.184 - 0.016ms returns 0
T67FC 001:477.193 JLINK_WriteReg(R12, 0x00000000)
T67FC 001:477.201 - 0.011ms returns 0
T67FC 001:477.210 JLINK_WriteReg(R13 (SP), 0x20001000)
T67FC 001:477.217 - 0.012ms returns 0
T67FC 001:477.226 JLINK_WriteReg(R14, 0x20000001)
T67FC 001:477.235 - 0.012ms returns 0
T67FC 001:477.244 JLINK_WriteReg(R15 (PC), 0x20000136)
T67FC 001:477.252 - 0.011ms returns 0
T67FC 001:477.260 JLINK_WriteReg(XPSR, 0x01000000)
T67FC 001:477.268 - 0.011ms returns 0
T67FC 001:477.276 JLINK_WriteReg(MSP, 0x20001000)
T67FC 001:477.284 - 0.011ms returns 0
T67FC 001:477.293 JLINK_WriteReg(PSP, 0x20001000)
T67FC 001:477.302 - 0.012ms returns 0
T67FC 001:477.310 JLINK_WriteReg(CFBP, 0x00000000)
T67FC 001:477.318 - 0.011ms returns 0
T67FC 001:477.327 JLINK_SetBPEx(Addr = 0x20000000, Type = 0xFFFFFFF2)
T67FC 001:477.338 - 0.015ms returns 0x00000006
T67FC 001:477.347 JLINK_Go()
T67FC 001:477.364   CPU_ReadMem(4 bytes @ 0xE0001000)
T67FC 001:485.399 - 8.078ms
T67FC 001:485.439 JLINK_IsHalted()
T67FC 001:487.331 - 1.911ms returns FALSE
T67FC 001:487.385 JLINK_HasError()
T67FC 001:489.746 JLINK_IsHalted()
T67FC 001:491.158 - 1.425ms returns FALSE
T67FC 001:491.179 JLINK_HasError()
T67FC 001:493.926 JLINK_IsHalted()
T67FC 001:495.706 - 2.570ms returns FALSE
T67FC 001:495.734 JLINK_HasError()
T67FC 001:496.897 JLINK_IsHalted()
T67FC 001:504.498   CPU_ReadMem(2 bytes @ 0x20000000)
T67FC 001:506.234 - 9.356ms returns TRUE
T67FC 001:506.265 JLINK_ReadReg(R15 (PC))
T67FC 001:506.278 - 0.016ms returns 0x20000000
T67FC 001:506.288 JLINK_ClrBPEx(BPHandle = 0x00000006)
T67FC 001:506.297 - 0.013ms returns 0x00
T67FC 001:506.308 JLINK_ReadReg(R0)
T67FC 001:506.315 - 0.011ms returns 0x00000000
T67FC 001:506.358 JLINK_WriteMem(0x200001BC, 0x244 Bytes, ...)
T67FC 001:506.368   Data:  09 F1 01 03 0A AA 01 A9 0C A8 FF F7 E2 FE DD E9 ...
T67FC 001:506.387   CPU_WriteMem(580 bytes @ 0x200001BC)
T67FC 001:514.238 - 7.905ms returns 0x244
T67FC 001:514.276 JLINK_WriteMem(0x20000400, 0x1BC Bytes, ...)
T67FC 001:514.285   Data:  A0 E8 18 50 BF F4 F5 AF 5F EA 02 7C 24 BF B1 E8 ...
T67FC 001:514.309   CPU_WriteMem(444 bytes @ 0x20000400)
T67FC 001:521.903 - 7.650ms returns 0x1BC
T67FC 001:521.937 JLINK_HasError()
T67FC 001:521.947 JLINK_WriteReg(R0, 0x08000800)
T67FC 001:521.959 - 0.016ms returns 0
T67FC 001:521.967 JLINK_WriteReg(R1, 0x00000400)
T67FC 001:521.976 - 0.012ms returns 0
T67FC 001:521.984 JLINK_WriteReg(R2, 0x200001BC)
T67FC 001:521.992 - 0.012ms returns 0
T67FC 001:522.000 JLINK_WriteReg(R3, 0x00000000)
T67FC 001:522.007 - 0.010ms returns 0
T67FC 001:522.015 JLINK_WriteReg(R4, 0x00000000)
T67FC 001:522.022 - 0.010ms returns 0
T67FC 001:522.030 JLINK_WriteReg(R5, 0x00000000)
T67FC 001:522.037 - 0.011ms returns 0
T67FC 001:522.045 JLINK_WriteReg(R6, 0x00000000)
T67FC 001:522.052 - 0.010ms returns 0
T67FC 001:522.060 JLINK_WriteReg(R7, 0x00000000)
T67FC 001:522.067 - 0.010ms returns 0
T67FC 001:522.075 JLINK_WriteReg(R8, 0x00000000)
T67FC 001:522.082 - 0.010ms returns 0
T67FC 001:522.090 JLINK_WriteReg(R9, 0x200001B8)
T67FC 001:522.097 - 0.011ms returns 0
T67FC 001:522.105 JLINK_WriteReg(R10, 0x00000000)
T67FC 001:522.113 - 0.011ms returns 0
T67FC 001:522.121 JLINK_WriteReg(R11, 0x00000000)
T67FC 001:522.128 - 0.010ms returns 0
T67FC 001:522.136 JLINK_WriteReg(R12, 0x00000000)
T67FC 001:522.144 - 0.011ms returns 0
T67FC 001:522.152 JLINK_WriteReg(R13 (SP), 0x20001000)
T67FC 001:522.161 - 0.013ms returns 0
T67FC 001:522.169 JLINK_WriteReg(R14, 0x20000001)
T67FC 001:522.178 - 0.012ms returns 0
T67FC 001:522.187 JLINK_WriteReg(R15 (PC), 0x20000136)
T67FC 001:522.194 - 0.011ms returns 0
T67FC 001:522.203 JLINK_WriteReg(XPSR, 0x01000000)
T67FC 001:522.212 - 0.012ms returns 0
T67FC 001:522.220 JLINK_WriteReg(MSP, 0x20001000)
T67FC 001:522.228 - 0.011ms returns 0
T67FC 001:522.236 JLINK_WriteReg(PSP, 0x20001000)
T67FC 001:522.245 - 0.013ms returns 0
T67FC 001:522.254 JLINK_WriteReg(CFBP, 0x00000000)
T67FC 001:522.262 - 0.011ms returns 0
T67FC 001:522.270 JLINK_SetBPEx(Addr = 0x20000000, Type = 0xFFFFFFF2)
T67FC 001:522.279 - 0.013ms returns 0x00000007
T67FC 001:522.287 JLINK_Go()
T67FC 001:522.304   CPU_ReadMem(4 bytes @ 0xE0001000)
T67FC 001:529.804 - 7.540ms
T67FC 001:529.838 JLINK_IsHalted()
T67FC 001:530.571 - 0.746ms returns FALSE
T67FC 001:530.591 JLINK_HasError()
T67FC 001:532.270 JLINK_IsHalted()
T67FC 001:532.887 - 0.629ms returns FALSE
T67FC 001:532.908 JLINK_HasError()
T67FC 001:534.267 JLINK_IsHalted()
T67FC 001:536.354 - 2.103ms returns FALSE
T67FC 001:536.380 JLINK_HasError()
T67FC 001:538.377 JLINK_IsHalted()
T67FC 001:539.073 - 0.709ms returns FALSE
T67FC 001:539.094 JLINK_HasError()
T67FC 001:540.251 JLINK_IsHalted()
T67FC 001:540.885 - 0.647ms returns FALSE
T67FC 001:540.906 JLINK_HasError()
T67FC 001:542.544 JLINK_IsHalted()
T67FC 001:549.859   CPU_ReadMem(2 bytes @ 0x20000000)
T67FC 001:551.408 - 8.879ms returns TRUE
T67FC 001:551.432 JLINK_ReadReg(R15 (PC))
T67FC 001:551.444 - 0.015ms returns 0x20000000
T67FC 001:551.453 JLINK_ClrBPEx(BPHandle = 0x00000007)
T67FC 001:551.460 - 0.053ms returns 0x00
T67FC 001:551.515 JLINK_ReadReg(R0)
T67FC 001:551.524 - 0.012ms returns 0x00000000
T67FC 001:551.566 JLINK_WriteMem(0x200001BC, 0x244 Bytes, ...)
T67FC 001:551.577   Data:  0A D0 32 46 68 46 07 EB 47 01 01 23 0A EB 81 01 ...
T67FC 001:551.595   CPU_WriteMem(580 bytes @ 0x200001BC)
T67FC 001:560.384 - 8.844ms returns 0x244
T67FC 001:560.422 JLINK_WriteMem(0x20000400, 0x1BC Bytes, ...)
T67FC 001:560.431   Data:  0C F1 01 0C CC F1 20 03 A0 EB 0C 00 22 FA 03 F3 ...
T67FC 001:560.454   CPU_WriteMem(444 bytes @ 0x20000400)
T67FC 001:567.897 - 7.504ms returns 0x1BC
T67FC 001:567.938 JLINK_HasError()
T67FC 001:567.949 JLINK_WriteReg(R0, 0x08000C00)
T67FC 001:567.961 - 0.016ms returns 0
T67FC 001:567.970 JLINK_WriteReg(R1, 0x00000400)
T67FC 001:567.978 - 0.011ms returns 0
T67FC 001:567.987 JLINK_WriteReg(R2, 0x200001BC)
T67FC 001:567.994 - 0.011ms returns 0
T67FC 001:568.003 JLINK_WriteReg(R3, 0x00000000)
T67FC 001:568.011 - 0.011ms returns 0
T67FC 001:568.019 JLINK_WriteReg(R4, 0x00000000)
T67FC 001:568.026 - 0.011ms returns 0
T67FC 001:568.066 JLINK_WriteReg(R5, 0x00000000)
T67FC 001:568.089 - 0.027ms returns 0
T67FC 001:568.099 JLINK_WriteReg(R6, 0x00000000)
T67FC 001:568.107 - 0.012ms returns 0
T67FC 001:568.116 JLINK_WriteReg(R7, 0x00000000)
T67FC 001:568.125 - 0.013ms returns 0
T67FC 001:568.134 JLINK_WriteReg(R8, 0x00000000)
T67FC 001:568.142 - 0.012ms returns 0
T67FC 001:568.152 JLINK_WriteReg(R9, 0x200001B8)
T67FC 001:568.160 - 0.012ms returns 0
T67FC 001:568.169 JLINK_WriteReg(R10, 0x00000000)
T67FC 001:568.178 - 0.012ms returns 0
T67FC 001:568.186 JLINK_WriteReg(R11, 0x00000000)
T67FC 001:568.193 - 0.011ms returns 0
T67FC 001:568.202 JLINK_WriteReg(R12, 0x00000000)
T67FC 001:568.208 - 0.010ms returns 0
T67FC 001:568.217 JLINK_WriteReg(R13 (SP), 0x20001000)
T67FC 001:568.226 - 0.012ms returns 0
T67FC 001:568.234 JLINK_WriteReg(R14, 0x20000001)
T67FC 001:568.241 - 0.011ms returns 0
T67FC 001:568.251 JLINK_WriteReg(R15 (PC), 0x20000136)
T67FC 001:568.259 - 0.011ms returns 0
T67FC 001:568.266 JLINK_WriteReg(XPSR, 0x01000000)
T67FC 001:568.274 - 0.011ms returns 0
T67FC 001:568.282 JLINK_WriteReg(MSP, 0x20001000)
T67FC 001:568.290 - 0.011ms returns 0
T67FC 001:568.298 JLINK_WriteReg(PSP, 0x20001000)
T67FC 001:568.307 - 0.013ms returns 0
T67FC 001:568.316 JLINK_WriteReg(CFBP, 0x00000000)
T67FC 001:568.325 - 0.011ms returns 0
T67FC 001:568.333 JLINK_SetBPEx(Addr = 0x20000000, Type = 0xFFFFFFF2)
T67FC 001:568.342 - 0.013ms returns 0x00000008
T67FC 001:568.352 JLINK_Go()
T67FC 001:568.369   CPU_ReadMem(4 bytes @ 0xE0001000)
T67FC 001:576.451 - 8.115ms
T67FC 001:576.479 JLINK_IsHalted()
T67FC 001:578.356 - 1.895ms returns FALSE
T67FC 001:578.383 JLINK_HasError()
T67FC 001:580.039 JLINK_IsHalted()
T67FC 001:580.633 - 0.607ms returns FALSE
T67FC 001:580.652 JLINK_HasError()
T67FC 001:582.531 JLINK_IsHalted()
T67FC 001:584.188 - 1.672ms returns FALSE
T67FC 001:584.212 JLINK_HasError()
T67FC 001:585.382 JLINK_IsHalted()
T67FC 001:586.322 - 0.972ms returns FALSE
T67FC 001:586.371 JLINK_HasError()
T67FC 001:588.770 JLINK_IsHalted()
T67FC 001:595.935   CPU_ReadMem(2 bytes @ 0x20000000)
T67FC 001:597.455 - 8.703ms returns TRUE
T67FC 001:597.485 JLINK_ReadReg(R15 (PC))
T67FC 001:597.497 - 0.016ms returns 0x20000000
T67FC 001:597.506 JLINK_ClrBPEx(BPHandle = 0x00000008)
T67FC 001:597.516 - 0.014ms returns 0x00
T67FC 001:597.525 JLINK_ReadReg(R0)
T67FC 001:597.533 - 0.011ms returns 0x00000000
T67FC 001:597.579 JLINK_WriteMem(0x200001BC, 0x244 Bytes, ...)
T67FC 001:597.591   Data:  C7 02 B2 EB C7 02 61 EB 57 71 15 EB 4C 25 4F EA ...
T67FC 001:597.609   CPU_WriteMem(580 bytes @ 0x200001BC)
T67FC 001:606.889 - 9.333ms returns 0x244
T67FC 001:606.921 JLINK_WriteMem(0x20000400, 0x1BC Bytes, ...)
T67FC 001:606.930   Data:  03 F1 4F F0 00 03 42 EA 07 02 A7 E7 46 EA 02 06 ...
T67FC 001:606.950   CPU_WriteMem(444 bytes @ 0x20000400)
T67FC 001:613.944 - 7.043ms returns 0x1BC
T67FC 001:613.978 JLINK_HasError()
T67FC 001:613.990 JLINK_WriteReg(R0, 0x08001000)
T67FC 001:614.006 - 0.022ms returns 0
T67FC 001:614.018 JLINK_WriteReg(R1, 0x00000400)
T67FC 001:614.027 - 0.013ms returns 0
T67FC 001:614.036 JLINK_WriteReg(R2, 0x200001BC)
T67FC 001:614.044 - 0.011ms returns 0
T67FC 001:614.053 JLINK_WriteReg(R3, 0x00000000)
T67FC 001:614.060 - 0.011ms returns 0
T67FC 001:614.068 JLINK_WriteReg(R4, 0x00000000)
T67FC 001:614.077 - 0.011ms returns 0
T67FC 001:614.085 JLINK_WriteReg(R5, 0x00000000)
T67FC 001:614.093 - 0.011ms returns 0
T67FC 001:614.101 JLINK_WriteReg(R6, 0x00000000)
T67FC 001:614.109 - 0.011ms returns 0
T67FC 001:614.117 JLINK_WriteReg(R7, 0x00000000)
T67FC 001:614.125 - 0.012ms returns 0
T67FC 001:614.133 JLINK_WriteReg(R8, 0x00000000)
T67FC 001:614.141 - 0.010ms returns 0
T67FC 001:614.149 JLINK_WriteReg(R9, 0x200001B8)
T67FC 001:614.157 - 0.011ms returns 0
T67FC 001:614.165 JLINK_WriteReg(R10, 0x00000000)
T67FC 001:614.172 - 0.011ms returns 0
T67FC 001:614.180 JLINK_WriteReg(R11, 0x00000000)
T67FC 001:614.187 - 0.011ms returns 0
T67FC 001:614.196 JLINK_WriteReg(R12, 0x00000000)
T67FC 001:614.203 - 0.010ms returns 0
T67FC 001:614.211 JLINK_WriteReg(R13 (SP), 0x20001000)
T67FC 001:614.220 - 0.012ms returns 0
T67FC 001:614.228 JLINK_WriteReg(R14, 0x20000001)
T67FC 001:614.235 - 0.011ms returns 0
T67FC 001:614.243 JLINK_WriteReg(R15 (PC), 0x20000136)
T67FC 001:614.251 - 0.011ms returns 0
T67FC 001:614.258 JLINK_WriteReg(XPSR, 0x01000000)
T67FC 001:614.265 - 0.010ms returns 0
T67FC 001:614.274 JLINK_WriteReg(MSP, 0x20001000)
T67FC 001:614.282 - 0.013ms returns 0
T67FC 001:614.298 JLINK_WriteReg(PSP, 0x20001000)
T67FC 001:614.308 - 0.013ms returns 0
T67FC 001:614.317 JLINK_WriteReg(CFBP, 0x00000000)
T67FC 001:614.327 - 0.014ms returns 0
T67FC 001:614.336 JLINK_SetBPEx(Addr = 0x20000000, Type = 0xFFFFFFF2)
T67FC 001:614.346 - 0.013ms returns 0x00000009
T67FC 001:614.356 JLINK_Go()
T67FC 001:614.372   CPU_ReadMem(4 bytes @ 0xE0001000)
T67FC 001:622.963 - 8.623ms
T67FC 001:622.989 JLINK_IsHalted()
T67FC 001:623.586 - 0.611ms returns FALSE
T67FC 001:623.612 JLINK_HasError()
T67FC 001:625.587 JLINK_IsHalted()
T67FC 001:627.327 - 1.759ms returns FALSE
T67FC 001:627.354 JLINK_HasError()
T67FC 001:628.864 JLINK_IsHalted()
T67FC 001:629.705 - 0.860ms returns FALSE
T67FC 001:629.733 JLINK_HasError()
T67FC 001:631.125 JLINK_IsHalted()
T67FC 001:632.119 - 1.014ms returns FALSE
T67FC 001:632.149 JLINK_HasError()
T67FC 001:634.294 JLINK_IsHalted()
T67FC 001:635.191 - 0.920ms returns FALSE
T67FC 001:635.223 JLINK_HasError()
T67FC 001:637.391 JLINK_IsHalted()
T67FC 001:644.852   CPU_ReadMem(2 bytes @ 0x20000000)
T67FC 001:646.382 - 9.012ms returns TRUE
T67FC 001:646.413 JLINK_ReadReg(R15 (PC))
T67FC 001:646.427 - 0.017ms returns 0x20000000
T67FC 001:646.435 JLINK_ClrBPEx(BPHandle = 0x00000009)
T67FC 001:646.444 - 0.012ms returns 0x00
T67FC 001:646.453 JLINK_ReadReg(R0)
T67FC 001:646.460 - 0.011ms returns 0x00000000
T67FC 001:646.500 JLINK_WriteMem(0x200001BC, 0x244 Bytes, ...)
T67FC 001:646.512   Data:  05 FB 0C FC 11 EB 07 41 44 EB 17 44 4F EA 12 47 ...
T67FC 001:646.530   CPU_WriteMem(580 bytes @ 0x200001BC)
T67FC 001:655.497 - 9.023ms returns 0x244
T67FC 001:655.534 JLINK_WriteMem(0x20000400, 0x1BC Bytes, ...)
T67FC 001:655.551   Data:  E5 FC 00 22 31 46 38 46 00 F0 E0 FC 60 06 6D 1C ...
T67FC 001:655.571   CPU_WriteMem(444 bytes @ 0x20000400)
T67FC 001:663.364 - 7.858ms returns 0x1BC
T67FC 001:663.406 JLINK_HasError()
T67FC 001:663.417 JLINK_WriteReg(R0, 0x08001400)
T67FC 001:663.431 - 0.017ms returns 0
T67FC 001:663.439 JLINK_WriteReg(R1, 0x00000400)
T67FC 001:663.446 - 0.010ms returns 0
T67FC 001:663.455 JLINK_WriteReg(R2, 0x200001BC)
T67FC 001:663.462 - 0.011ms returns 0
T67FC 001:663.470 JLINK_WriteReg(R3, 0x00000000)
T67FC 001:663.480 - 0.019ms returns 0
T67FC 001:663.493 JLINK_WriteReg(R4, 0x00000000)
T67FC 001:663.501 - 0.011ms returns 0
T67FC 001:663.508 JLINK_WriteReg(R5, 0x00000000)
T67FC 001:663.516 - 0.010ms returns 0
T67FC 001:663.524 JLINK_WriteReg(R6, 0x00000000)
T67FC 001:663.535 - 0.016ms returns 0
T67FC 001:663.546 JLINK_WriteReg(R7, 0x00000000)
T67FC 001:663.554 - 0.011ms returns 0
T67FC 001:663.562 JLINK_WriteReg(R8, 0x00000000)
T67FC 001:663.569 - 0.010ms returns 0
T67FC 001:663.577 JLINK_WriteReg(R9, 0x200001B8)
T67FC 001:663.584 - 0.011ms returns 0
T67FC 001:663.592 JLINK_WriteReg(R10, 0x00000000)
T67FC 001:663.600 - 0.014ms returns 0
T67FC 001:663.611 JLINK_WriteReg(R11, 0x00000000)
T67FC 001:663.619 - 0.011ms returns 0
T67FC 001:663.627 JLINK_WriteReg(R12, 0x00000000)
T67FC 001:663.634 - 0.011ms returns 0
T67FC 001:663.642 JLINK_WriteReg(R13 (SP), 0x20001000)
T67FC 001:663.650 - 0.011ms returns 0
T67FC 001:663.658 JLINK_WriteReg(R14, 0x20000001)
T67FC 001:663.665 - 0.010ms returns 0
T67FC 001:663.674 JLINK_WriteReg(R15 (PC), 0x20000136)
T67FC 001:663.682 - 0.012ms returns 0
T67FC 001:663.692 JLINK_WriteReg(XPSR, 0x01000000)
T67FC 001:663.700 - 0.011ms returns 0
T67FC 001:663.709 JLINK_WriteReg(MSP, 0x20001000)
T67FC 001:663.717 - 0.015ms returns 0
T67FC 001:663.730 JLINK_WriteReg(PSP, 0x20001000)
T67FC 001:663.738 - 0.011ms returns 0
T67FC 001:663.747 JLINK_WriteReg(CFBP, 0x00000000)
T67FC 001:663.755 - 0.012ms returns 0
T67FC 001:663.765 JLINK_SetBPEx(Addr = 0x20000000, Type = 0xFFFFFFF2)
T67FC 001:663.775 - 0.014ms returns 0x0000000A
T67FC 001:663.784 JLINK_Go()
T67FC 001:663.800   CPU_ReadMem(4 bytes @ 0xE0001000)
T67FC 001:673.222 - 9.462ms
T67FC 001:673.256 JLINK_IsHalted()
T67FC 001:673.803 - 0.560ms returns FALSE
T67FC 001:673.826 JLINK_HasError()
T67FC 001:675.906 JLINK_IsHalted()
T67FC 001:677.319 - 1.429ms returns FALSE
T67FC 001:677.345 JLINK_HasError()
T67FC 001:679.060 JLINK_IsHalted()
T67FC 001:679.914 - 0.873ms returns FALSE
T67FC 001:679.943 JLINK_HasError()
T67FC 001:681.406 JLINK_IsHalted()
T67FC 001:682.102 - 0.709ms returns FALSE
T67FC 001:682.122 JLINK_HasError()
T67FC 001:683.374 JLINK_IsHalted()
T67FC 001:684.009 - 0.652ms returns FALSE
T67FC 001:684.035 JLINK_HasError()
T67FC 001:685.397 JLINK_IsHalted()
T67FC 001:693.075   CPU_ReadMem(2 bytes @ 0x20000000)
T67FC 001:694.409 - 9.028ms returns TRUE
T67FC 001:694.435 JLINK_ReadReg(R15 (PC))
T67FC 001:694.447 - 0.017ms returns 0x20000000
T67FC 001:694.457 JLINK_ClrBPEx(BPHandle = 0x0000000A)
T67FC 001:694.467 - 0.013ms returns 0x00
T67FC 001:694.476 JLINK_ReadReg(R0)
T67FC 001:694.484 - 0.011ms returns 0x00000000
T67FC 001:694.520 JLINK_WriteMem(0x200001BC, 0x244 Bytes, ...)
T67FC 001:694.530   Data:  60 6D 40 F0 20 00 60 65 5F F0 01 07 84 F8 50 80 ...
T67FC 001:694.554   CPU_WriteMem(580 bytes @ 0x200001BC)
T67FC 001:703.407 - 8.901ms returns 0x244
T67FC 001:703.432 JLINK_WriteMem(0x20000400, 0x1BC Bytes, ...)
T67FC 001:703.440   Data:  B1 FA 81 F1 01 F1 01 01 01 F0 1F 01 06 FA 01 F6 ...
T67FC 001:703.461   CPU_WriteMem(444 bytes @ 0x20000400)
T67FC 001:710.849 - 7.441ms returns 0x1BC
T67FC 001:710.885 JLINK_HasError()
T67FC 001:710.897 JLINK_WriteReg(R0, 0x08001800)
T67FC 001:710.910 - 0.016ms returns 0
T67FC 001:710.919 JLINK_WriteReg(R1, 0x00000400)
T67FC 001:710.935 - 0.021ms returns 0
T67FC 001:710.946 JLINK_WriteReg(R2, 0x200001BC)
T67FC 001:710.954 - 0.012ms returns 0
T67FC 001:710.966 JLINK_WriteReg(R3, 0x00000000)
T67FC 001:710.973 - 0.010ms returns 0
T67FC 001:710.983 JLINK_WriteReg(R4, 0x00000000)
T67FC 001:710.991 - 0.012ms returns 0
T67FC 001:711.002 JLINK_WriteReg(R5, 0x00000000)
T67FC 001:711.010 - 0.011ms returns 0
T67FC 001:711.020 JLINK_WriteReg(R6, 0x00000000)
T67FC 001:711.029 - 0.012ms returns 0
T67FC 001:711.040 JLINK_WriteReg(R7, 0x00000000)
T67FC 001:711.047 - 0.011ms returns 0
T67FC 001:711.056 JLINK_WriteReg(R8, 0x00000000)
T67FC 001:711.068 - 0.015ms returns 0
T67FC 001:711.077 JLINK_WriteReg(R9, 0x200001B8)
T67FC 001:711.086 - 0.012ms returns 0
T67FC 001:711.095 JLINK_WriteReg(R10, 0x00000000)
T67FC 001:711.102 - 0.011ms returns 0
T67FC 001:711.114 JLINK_WriteReg(R11, 0x00000000)
T67FC 001:711.121 - 0.010ms returns 0
T67FC 001:711.131 JLINK_WriteReg(R12, 0x00000000)
T67FC 001:711.138 - 0.015ms returns 0
T67FC 001:711.153 JLINK_WriteReg(R13 (SP), 0x20001000)
T67FC 001:711.163 - 0.014ms returns 0
T67FC 001:711.206 JLINK_WriteReg(R14, 0x20000001)
T67FC 001:711.216 - 0.014ms returns 0
T67FC 001:711.225 JLINK_WriteReg(R15 (PC), 0x20000136)
T67FC 001:711.238 - 0.017ms returns 0
T67FC 001:711.247 JLINK_WriteReg(XPSR, 0x01000000)
T67FC 001:711.255 - 0.011ms returns 0
T67FC 001:711.263 JLINK_WriteReg(MSP, 0x20001000)
T67FC 001:711.271 - 0.011ms returns 0
T67FC 001:711.279 JLINK_WriteReg(PSP, 0x20001000)
T67FC 001:711.287 - 0.011ms returns 0
T67FC 001:711.295 JLINK_WriteReg(CFBP, 0x00000000)
T67FC 001:711.303 - 0.011ms returns 0
T67FC 001:711.311 JLINK_SetBPEx(Addr = 0x20000000, Type = 0xFFFFFFF2)
T67FC 001:711.320 - 0.012ms returns 0x0000000B
T67FC 001:711.329 JLINK_Go()
T67FC 001:711.345   CPU_ReadMem(4 bytes @ 0xE0001000)
T67FC 001:719.353 - 8.043ms
T67FC 001:719.383 JLINK_IsHalted()
T67FC 001:721.333 - 1.971ms returns FALSE
T67FC 001:721.364 JLINK_HasError()
T67FC 001:722.660 JLINK_IsHalted()
T67FC 001:723.325 - 0.680ms returns FALSE
T67FC 001:723.349 JLINK_HasError()
T67FC 001:724.664 JLINK_IsHalted()
T67FC 001:725.321 - 0.668ms returns FALSE
T67FC 001:725.340 JLINK_HasError()
T67FC 001:726.651 JLINK_IsHalted()
T67FC 001:727.321 - 0.679ms returns FALSE
T67FC 001:727.337 JLINK_HasError()
T67FC 001:728.650 JLINK_IsHalted()
T67FC 001:729.317 - 0.678ms returns FALSE
T67FC 001:729.336 JLINK_HasError()
T67FC 001:731.167 JLINK_IsHalted()
T67FC 001:738.430   CPU_ReadMem(2 bytes @ 0x20000000)
T67FC 001:739.013 - 7.858ms returns TRUE
T67FC 001:739.035 JLINK_ReadReg(R15 (PC))
T67FC 001:739.047 - 0.014ms returns 0x20000000
T67FC 001:739.056 JLINK_ClrBPEx(BPHandle = 0x0000000B)
T67FC 001:739.064 - 0.011ms returns 0x00
T67FC 001:739.073 JLINK_ReadReg(R0)
T67FC 001:739.081 - 0.013ms returns 0x00000000
T67FC 001:739.130 JLINK_WriteMem(0x200001BC, 0x244 Bytes, ...)
T67FC 001:739.139   Data:  81 60 20 68 81 68 C1 F3 00 71 89 B9 81 68 54 4A ...
T67FC 001:739.154   CPU_WriteMem(580 bytes @ 0x200001BC)
T67FC 001:747.806 - 8.691ms returns 0x244
T67FC 001:747.832 JLINK_WriteMem(0x20000400, 0x1BC Bytes, ...)
T67FC 001:747.841   Data:  01 0C 0F 27 09 F1 04 0A AB F1 04 0E BF E0 00 BF ...
T67FC 001:747.862   CPU_WriteMem(444 bytes @ 0x20000400)
T67FC 001:754.342 - 6.540ms returns 0x1BC
T67FC 001:754.382 JLINK_HasError()
T67FC 001:754.391 JLINK_WriteReg(R0, 0x08001C00)
T67FC 001:754.403 - 0.016ms returns 0
T67FC 001:754.411 JLINK_WriteReg(R1, 0x00000400)
T67FC 001:754.419 - 0.011ms returns 0
T67FC 001:754.427 JLINK_WriteReg(R2, 0x200001BC)
T67FC 001:754.434 - 0.010ms returns 0
T67FC 001:754.442 JLINK_WriteReg(R3, 0x00000000)
T67FC 001:754.450 - 0.010ms returns 0
T67FC 001:754.457 JLINK_WriteReg(R4, 0x00000000)
T67FC 001:754.465 - 0.011ms returns 0
T67FC 001:754.472 JLINK_WriteReg(R5, 0x00000000)
T67FC 001:754.480 - 0.011ms returns 0
T67FC 001:754.489 JLINK_WriteReg(R6, 0x00000000)
T67FC 001:754.499 - 0.014ms returns 0
T67FC 001:754.507 JLINK_WriteReg(R7, 0x00000000)
T67FC 001:754.515 - 0.010ms returns 0
T67FC 001:754.522 JLINK_WriteReg(R8, 0x00000000)
T67FC 001:754.530 - 0.011ms returns 0
T67FC 001:754.538 JLINK_WriteReg(R9, 0x200001B8)
T67FC 001:754.545 - 0.010ms returns 0
T67FC 001:754.552 JLINK_WriteReg(R10, 0x00000000)
T67FC 001:754.559 - 0.010ms returns 0
T67FC 001:754.567 JLINK_WriteReg(R11, 0x00000000)
T67FC 001:754.574 - 0.010ms returns 0
T67FC 001:754.582 JLINK_WriteReg(R12, 0x00000000)
T67FC 001:754.589 - 0.011ms returns 0
T67FC 001:754.598 JLINK_WriteReg(R13 (SP), 0x20001000)
T67FC 001:754.609 - 0.014ms returns 0
T67FC 001:754.617 JLINK_WriteReg(R14, 0x20000001)
T67FC 001:754.624 - 0.010ms returns 0
T67FC 001:754.632 JLINK_WriteReg(R15 (PC), 0x20000136)
T67FC 001:754.639 - 0.010ms returns 0
T67FC 001:754.647 JLINK_WriteReg(XPSR, 0x01000000)
T67FC 001:754.655 - 0.011ms returns 0
T67FC 001:754.662 JLINK_WriteReg(MSP, 0x20001000)
T67FC 001:754.671 - 0.012ms returns 0
T67FC 001:754.679 JLINK_WriteReg(PSP, 0x20001000)
T67FC 001:754.686 - 0.014ms returns 0
T67FC 001:754.700 JLINK_WriteReg(CFBP, 0x00000000)
T67FC 001:754.707 - 0.010ms returns 0
T67FC 001:754.715 JLINK_SetBPEx(Addr = 0x20000000, Type = 0xFFFFFFF2)
T67FC 001:754.728 - 0.016ms returns 0x0000000C
T67FC 001:754.736 JLINK_Go()
T67FC 001:754.751   CPU_ReadMem(4 bytes @ 0xE0001000)
T67FC 001:762.418 - 7.698ms
T67FC 001:762.444 JLINK_IsHalted()
T67FC 001:764.328 - 1.904ms returns FALSE
T67FC 001:764.358 JLINK_HasError()
T67FC 001:766.488 JLINK_IsHalted()
T67FC 001:767.094 - 0.621ms returns FALSE
T67FC 001:767.117 JLINK_HasError()
T67FC 001:768.484 JLINK_IsHalted()
T67FC 001:769.133 - 0.665ms returns FALSE
T67FC 001:769.157 JLINK_HasError()
T67FC 001:770.521 JLINK_IsHalted()
T67FC 001:772.182 - 1.675ms returns FALSE
T67FC 001:772.204 JLINK_HasError()
T67FC 001:773.974 JLINK_IsHalted()
T67FC 001:774.576 - 0.615ms returns FALSE
T67FC 001:774.597 JLINK_HasError()
T67FC 001:775.986 JLINK_IsHalted()
T67FC 001:783.247   CPU_ReadMem(2 bytes @ 0x20000000)
T67FC 001:783.845 - 7.869ms returns TRUE
T67FC 001:783.865 JLINK_ReadReg(R15 (PC))
T67FC 001:783.877 - 0.015ms returns 0x20000000
T67FC 001:783.885 JLINK_ClrBPEx(BPHandle = 0x0000000C)
T67FC 001:783.893 - 0.011ms returns 0x00
T67FC 001:783.902 JLINK_ReadReg(R0)
T67FC 001:783.911 - 0.012ms returns 0x00000000
T67FC 001:783.956 JLINK_WriteMem(0x200001BC, 0x244 Bytes, ...)
T67FC 001:783.973   Data:  30 BC BD E8 C0 8F 00 69 08 40 00 D0 01 20 70 47 ...
T67FC 001:783.989   CPU_WriteMem(580 bytes @ 0x200001BC)
T67FC 001:792.588 - 8.650ms returns 0x244
T67FC 001:792.620 JLINK_WriteMem(0x20000400, 0x1BC Bytes, ...)
T67FC 001:792.630   Data:  00 96 01 F0 9D FB A0 BB 20 68 40 6A 61 6A 08 70 ...
T67FC 001:792.653   CPU_WriteMem(444 bytes @ 0x20000400)
T67FC 001:800.014 - 7.416ms returns 0x1BC
T67FC 001:800.048 JLINK_HasError()
T67FC 001:800.059 JLINK_WriteReg(R0, 0x08002000)
